
T05D8 000:111 SEGGER J-Link V4.98e Log File (0001ms, 0047ms total)
T05D8 000:111 DLL Compiled: May  5 2015 11:00:52 (0001ms, 0047ms total)
T05D8 000:111 Logging started @ 2019-06-25 18:50 (0001ms, 0047ms total)
T05D8 000:112 JLINK_SetWarnOutHandler(...) (0000ms, 0047ms total)
T05D8 000:112 JLINK_OpenEx(...)
Firmware: J-Link V9 compiled Oct 25 2018 11:46:07
Hardware: V9.30
S/N: 20370421
Feature(s): GDB, RDI, FlashBP, FlashDL, JFlash, RDDI  returns O.K. (0035ms, 0082ms total)
T05D8 000:147 JLINK_SetErrorOutHandler(...) (0000ms, 0082ms total)
T05D8 000:147 JLINK_ExecCommand("ProjectFile = "F:\SYD8801\SYD8821\SYD8821_SDK\Source Code\SYD8821_peripheral_misc\wdt_IRQ\Keil\JLinkSettings.ini"", ...)Device "UNSPECIFIED" selected.  returns 0x00 (0030ms, 0112ms total)
T05D8 000:179 JLINK_ExecCommand("Device = ARMCM0", ...)Device "UNSPECIFIED" selected.  returns 0x00 (0006ms, 0118ms total)
T05D8 000:185 JLINK_ExecCommand("DisableConnectionTimeout", ...)  returns 0x01 (0000ms, 0118ms total)
T05D8 000:185 JLINK_GetHardwareVersion()  returns 0x16B48 (0001ms, 0119ms total)
T05D8 000:186 JLINK_GetDLLVersion()  returns 49805 (0000ms, 0119ms total)
T05D8 000:186 JLINK_GetFirmwareString(...) (0000ms, 0119ms total)
T05D8 000:192 JLINK_GetDLLVersion()  returns 49805 (0001ms, 0120ms total)
T05D8 000:193 JLINK_GetCompileDateTime() (0000ms, 0120ms total)
T05D8 000:193 JLINK_GetFirmwareString(...) (0000ms, 0120ms total)
T05D8 000:194 JLINK_GetHardwareVersion()  returns 0x16B48 (0000ms, 0120ms total)
T05D8 000:196 JLINK_TIF_Select(JLINKARM_TIF_SWD)  returns 0x00 (0003ms, 0123ms total)
T05D8 000:199 JLINK_SetSpeed(2000) (0001ms, 0124ms total)
T05D8 000:200 JLINK_GetId() >0x108 TIF>Found SWD-DP with ID 0x0BB11477 >0x0D TIF> >0x21 TIF> >0x0D TIF> >0x28 TIF> >0x0D TIF> >0x28 TIF> >0x0D TIF> >0x21 TIF> >0x0D TIF> >0x28 TIF> >0x0D TIF> >0x21 TIF> >0x0D TIF> >0x21 TIF> >0x0D TIF> >0x21 TIF> >0x0D TIF> >0x21 TIF> >0x0D TIF> >0x28 TIF> >0x0D TIF> >0x28 TIF> >0x0D TIF> >0x21 TIF> >0x0D TIF> >0x28 TIF> >0x0D TIF> >0x28 TIF> >0x0D TIF> >0x28 TIF> >0x0D TIF> >0x21 TIF> >0x0D TIF> >0x21 TIF> >0x0D TIF> >0x28 TIF> >0x0D TIF> >0x21 TIF> >0x0D TIF>
 >0x21 TIF>Found Cortex-M0 r0p0, Little endian. -- CPU_WriteMem(4 bytes @ 0xE0002000) -- CPU_ReadMem(4 bytes @ 0xE000EDF0) -- CPU_WriteMem(4 bytes @ 0xE000EDF0) -- CPU_ReadMem(4 bytes @ 0xE0002000)FPUnit: 4 code (BP) slots and 0 literal slots -- CPU_ReadMem(4 bytes @ 0xE000EDFC) -- CPU_WriteMem(4 bytes @ 0xE000EDFC) -- CPU_ReadMem(4 bytes @ 0xE0001000) -- CPU_WriteMem(4 bytes @ 0xE0001000)CoreSight components:ROMTbl 0 @ E00FF000 -- CPU_ReadMem(16 bytes @ 0xE00FF000) -- CPU_ReadMem(16 bytes @ 0xE000EFF0)
 -- CPU_ReadMem(16 bytes @ 0xE000EFE0)ROMTbl 0 [0]: FFF0F000, CID: B105E00D, PID: 000BB008 SCS -- CPU_ReadMem(16 bytes @ 0xE0001FF0) -- CPU_ReadMem(16 bytes @ 0xE0001FE0)ROMTbl 0 [1]: FFF02000, CID: B105E00D, PID: 000BB00A DWT -- CPU_ReadMem(16 bytes @ 0xE0002FF0) -- CPU_ReadMem(16 bytes @ 0xE0002FE0)ROMTbl 0 [2]: FFF03000, CID: B105E00D, PID: 000BB00B FPB >0x0D TIF> >0x21 TIF>  returns 0x0BB11477 (0072ms, 0196ms total)
T05D8 000:272 JLINK_GetDLLVersion()  returns 49805 (0000ms, 0196ms total)
T05D8 000:272 JLINK_CORE_GetFound()  returns 0x60000FF (0000ms, 0196ms total)
T05D8 000:272 JLINK_GetDebugInfo(0x100) -- Value=0xE00FF003  returns 0x00 (0000ms, 0196ms total)
T05D8 000:273 JLINK_ReadMem (0xE00FF000, 0x0020 Bytes, ...) -- CPU is running -- CPU_ReadMem(32 bytes @ 0xE00FF000) - Data: 03 F0 F0 FF 03 20 F0 FF 03 30 F0 FF 00 00 00 00 ...  returns 0x00 (0001ms, 0197ms total)
T05D8 000:274 JLINK_ReadMem (0xE000EFF0, 0x0010 Bytes, ...) -- CPU is running -- CPU_ReadMem(16 bytes @ 0xE000EFF0) - Data: 0D 00 00 00 E0 00 00 00 05 00 00 00 B1 00 00 00  returns 0x00 (0001ms, 0198ms total)
T05D8 000:275 JLINK_ReadMem (0xE000EFD0, 0x0020 Bytes, ...) -- CPU is running -- CPU_ReadMem(32 bytes @ 0xE000EFD0) - Data: 04 00 00 00 00 00 00 00 00 00 00 00 00 00 00 00 ...  returns 0x00 (0001ms, 0199ms total)
T05D8 000:276 JLINK_ReadMem (0xE0001FF0, 0x0010 Bytes, ...) -- CPU is running -- CPU_ReadMem(16 bytes @ 0xE0001FF0) - Data: 0D 00 00 00 E0 00 00 00 05 00 00 00 B1 00 00 00  returns 0x00 (0001ms, 0200ms total)
T05D8 000:277 JLINK_ReadMem (0xE0001FD0, 0x0020 Bytes, ...) -- CPU is running -- CPU_ReadMem(32 bytes @ 0xE0001FD0) - Data: 04 00 00 00 00 00 00 00 00 00 00 00 00 00 00 00 ...  returns 0x00 (0001ms, 0201ms total)
T05D8 000:278 JLINK_ReadMem (0xE0002FF0, 0x0010 Bytes, ...) -- CPU is running -- CPU_ReadMem(16 bytes @ 0xE0002FF0) - Data: 0D 00 00 00 E0 00 00 00 05 00 00 00 B1 00 00 00  returns 0x00 (0001ms, 0202ms total)
T05D8 000:279 JLINK_ReadMem (0xE0002FD0, 0x0020 Bytes, ...) -- CPU is running -- CPU_ReadMem(32 bytes @ 0xE0002FD0) - Data: 04 00 00 00 00 00 00 00 00 00 00 00 00 00 00 00 ...  returns 0x00 (0001ms, 0203ms total)
T05D8 000:280 JLINK_ReadMemU32(0xE000ED00, 0x0001 Items, ...) -- CPU is running -- CPU_ReadMem(4 bytes @ 0xE000ED00) - Data: 00 C2 0C 41  returns 0x01 (0001ms, 0204ms total)
T05D8 000:281 JLINK_SetResetType(JLINKARM_RESET_TYPE_NORMAL)  returns JLINKARM_RESET_TYPE_NORMAL (0000ms, 0204ms total)
T05D8 000:281 JLINK_Reset() -- CPU is running -- CPU_WriteMem(4 bytes @ 0xE000EDF0) -- CPU is running -- CPU_WriteMem(4 bytes @ 0xE000EDFC) >0x35 TIF> -- CPU is running -- CPU_WriteMem(4 bytes @ 0xE000ED0C) -- CPU is running -- CPU_ReadMem(4 bytes @ 0xE000EDF0) -- CPU is running -- CPU_ReadMem(4 bytes @ 0xE000EDF0) -- CPU is running -- CPU_WriteMem(4 bytes @ 0xE000EDF0) -- CPU is running -- CPU_WriteMem(4 bytes @ 0xE000EDFC) -- CPU is running -- CPU_ReadMem(4 bytes @ 0xE000EDF0)
 -- CPU_WriteMem(4 bytes @ 0xE0002000) -- CPU_ReadMem(4 bytes @ 0xE000EDFC) -- CPU_ReadMem(4 bytes @ 0xE0001000) -- CPU_WriteMem(4 bytes @ 0xE0001000) (0024ms, 0228ms total)
T05D8 000:305 JLINK_Halt()  returns 0x00 (0000ms, 0228ms total)
T05D8 000:305 JLINK_IsHalted()  returns TRUE (0000ms, 0228ms total)
T05D8 000:305 JLINK_ReadMemU32(0xE000EDF0, 0x0001 Items, ...) -- CPU_ReadMem(4 bytes @ 0xE000EDF0) - Data: 03 00 03 00  returns 0x01 (0001ms, 0229ms total)
T05D8 000:306 JLINK_WriteU32(0xE000EDF0, 0xA05F0003) -- CPU_WriteMem(4 bytes @ 0xE000EDF0)  returns 0x00 (0001ms, 0230ms total)
T05D8 000:307 JLINK_WriteU32(0xE000EDFC, 0x01000000) -- CPU_WriteMem(4 bytes @ 0xE000EDFC)  returns 0x00 (0001ms, 0231ms total)
T05D8 000:311 JLINK_GetHWStatus(...)  returns 0x00 (0001ms, 0232ms total)
T05D8 000:314 JLINK_GetNumBPUnits(Type = 0xFFFFFF00)  returns 0x04 (0000ms, 0232ms total)
T05D8 000:314 JLINK_GetNumBPUnits(Type = 0xF0)  returns 0x2000 (0000ms, 0232ms total)
T05D8 000:314 JLINK_GetNumWPUnits()  returns 0x02 (0000ms, 0232ms total)
T05D8 000:315 JLINK_GetSpeed()  returns 0x7D0 (0000ms, 0232ms total)
T05D8 000:316 JLINK_ReadMemU32(0xE000E004, 0x0001 Items, ...) -- CPU_ReadMem(4 bytes @ 0xE000E004) - Data: 00 00 00 00  returns 0x01 (0002ms, 0234ms total)
T05D8 000:319 JLINK_Halt()  returns 0x00 (0000ms, 0234ms total)
T05D8 000:319 JLINK_IsHalted()  returns TRUE (0000ms, 0234ms total)
T05D8 000:323 JLINK_WriteMem(0x20000000, 0x169C Bytes, ...) - Data: 00 BE 0A E0 0D 78 2D 06 68 40 08 24 40 00 00 D3 ... -- CPU_WriteMem(5788 bytes @ 0x20000000)  returns 0x169C (0043ms, 0277ms total)
T05D8 000:366 JLINK_WriteReg(R0, 0x10000000)  returns 0x00 (0000ms, 0277ms total)
T05D8 000:366 JLINK_WriteReg(R1, 0x00989680)  returns 0x00 (0000ms, 0277ms total)
T05D8 000:366 JLINK_WriteReg(R2, 0x00000001)  returns 0x00 (0000ms, 0277ms total)
T05D8 000:366 JLINK_WriteReg(R3, 0x00000000)  returns 0x00 (0000ms, 0277ms total)
T05D8 000:366 JLINK_WriteReg(R4, 0x00000000)  returns 0x00 (0000ms, 0277ms total)
T05D8 000:366 JLINK_WriteReg(R5, 0x00000000)  returns 0x00 (0000ms, 0277ms total)
T05D8 000:366 JLINK_WriteReg(R6, 0x00000000)  returns 0x00 (0000ms, 0277ms total)
T05D8 000:366 JLINK_WriteReg(R7, 0x00000000)  returns 0x00 (0001ms, 0278ms total)
T05D8 000:367 JLINK_WriteReg(R8, 0x00000000)  returns 0x00 (0000ms, 0278ms total)
T05D8 000:367 JLINK_WriteReg(R9, 0x2000167C)  returns 0x00 (0000ms, 0278ms total)
T05D8 000:367 JLINK_WriteReg(R10, 0x00000000)  returns 0x00 (0000ms, 0278ms total)
T05D8 000:367 JLINK_WriteReg(R11, 0x00000000)  returns 0x00 (0000ms, 0278ms total)
T05D8 000:367 JLINK_WriteReg(R12, 0x00000000)  returns 0x00 (0000ms, 0278ms total)
T05D8 000:367 JLINK_WriteReg(R13 (SP), 0x20005000)  returns 0x00 (0000ms, 0278ms total)
T05D8 000:367 JLINK_WriteReg(R14, 0x20000001)  returns 0x00 (0000ms, 0278ms total)
T05D8 000:367 JLINK_WriteReg(R15 (PC), 0x20000400)  returns 0x00 (0000ms, 0278ms total)
T05D8 000:367 JLINK_WriteReg(XPSR, 0x01000000)  returns 0x00 (0000ms, 0278ms total)
T05D8 000:367 JLINK_WriteReg(MSP, 0x20005000)  returns 0x00 (0000ms, 0278ms total)
T05D8 000:367 JLINK_WriteReg(PSP, 0x20005000)  returns 0x00 (0000ms, 0278ms total)
T05D8 000:367 JLINK_WriteReg(CFBP, 0x00000000)  returns 0x00 (0000ms, 0278ms total)
T05D8 000:367 JLINK_SetBPEx(Addr = 0x20000000, Type = 0xFFFFFFF2) -- CPU_ReadMem(4 bytes @ 0x20000000) -- CPU_WriteMem(4 bytes @ 0x20000000) -- CPU_ReadMem(4 bytes @ 0x20000000) -- CPU_WriteMem(4 bytes @ 0x20000000) -- CPU_ReadMem(2 bytes @ 0x20000000)  returns 0x00000001 (0005ms, 0283ms total)
T05D8 000:372 JLINK_Go() -- CPU_WriteMem(2 bytes @ 0x20000000) -- CPU_ReadMem(4 bytes @ 0xE0001000) -- CPU_WriteMem(4 bytes @ 0xE0001000) -- CPU_WriteMem(4 bytes @ 0xE0002008) -- CPU_WriteMem(4 bytes @ 0xE000200C) -- CPU_WriteMem(4 bytes @ 0xE0002010) -- CPU_WriteMem(4 bytes @ 0xE0002014) -- CPU_WriteMem(4 bytes @ 0xE0001004) (0009ms, 0292ms total)
T05D8 000:381 JLINK_IsHalted()  returns FALSE (0001ms, 0293ms total)
T05D8 000:462 JLINK_IsHalted() -- CPU_ReadMem(2 bytes @ 0x20000000)  returns TRUE (0005ms, 0297ms total)
T05D8 000:467 JLINK_ReadReg(R15 (PC))  returns 0x20000000 (0000ms, 0292ms total)
T05D8 000:467 JLINK_ClrBPEx(BPHandle = 0x00000001)  returns 0x00 (0000ms, 0292ms total)
T05D8 000:467 JLINK_ReadReg(R0)  returns 0x00000000 (0000ms, 0292ms total)
T05D8 000:468 JLINK_WriteReg(R0, 0x10000000)  returns 0x00 (0000ms, 0292ms total)
T05D8 000:468 JLINK_WriteReg(R1, 0x00001000)  returns 0x00 (0000ms, 0292ms total)
T05D8 000:468 JLINK_WriteReg(R2, 0x000000FF)  returns 0x00 (0000ms, 0292ms total)
T05D8 000:468 JLINK_WriteReg(R3, 0x00000000)  returns 0x00 (0000ms, 0292ms total)
T05D8 000:468 JLINK_WriteReg(R4, 0x00000000)  returns 0x00 (0000ms, 0292ms total)
T05D8 000:468 JLINK_WriteReg(R5, 0x00000000)  returns 0x00 (0000ms, 0292ms total)
T05D8 000:468 JLINK_WriteReg(R6, 0x00000000)  returns 0x00 (0000ms, 0292ms total)
T05D8 000:468 JLINK_WriteReg(R7, 0x00000000)  returns 0x00 (0000ms, 0292ms total)
T05D8 000:468 JLINK_WriteReg(R8, 0x00000000)  returns 0x00 (0000ms, 0292ms total)
T05D8 000:468 JLINK_WriteReg(R9, 0x2000167C)  returns 0x00 (0000ms, 0292ms total)
T05D8 000:468 JLINK_WriteReg(R10, 0x00000000)  returns 0x00 (0000ms, 0292ms total)
T05D8 000:468 JLINK_WriteReg(R11, 0x00000000)  returns 0x00 (0000ms, 0292ms total)
T05D8 000:468 JLINK_WriteReg(R12, 0x00000000)  returns 0x00 (0000ms, 0292ms total)
T05D8 000:468 JLINK_WriteReg(R13 (SP), 0x20005000)  returns 0x00 (0000ms, 0292ms total)
T05D8 000:468 JLINK_WriteReg(R14, 0x20000001)  returns 0x00 (0000ms, 0292ms total)
T05D8 000:468 JLINK_WriteReg(R15 (PC), 0x20000020)  returns 0x00 (0000ms, 0292ms total)
T05D8 000:468 JLINK_WriteReg(XPSR, 0x01000000)  returns 0x00 (0000ms, 0292ms total)
T05D8 000:468 JLINK_WriteReg(MSP, 0x20005000)  returns 0x00 (0000ms, 0292ms total)
T05D8 000:468 JLINK_WriteReg(PSP, 0x20005000)  returns 0x00 (0000ms, 0292ms total)
T05D8 000:468 JLINK_WriteReg(CFBP, 0x00000000)  returns 0x00 (0000ms, 0292ms total)
T05D8 000:468 JLINK_SetBPEx(Addr = 0x20000000, Type = 0xFFFFFFF2)  returns 0x00000002 (0000ms, 0292ms total)
T05D8 000:468 JLINK_Go() -- CPU_ReadMem(4 bytes @ 0xE0001000) -- CPU_WriteMem(4 bytes @ 0xE0001000) (0006ms, 0298ms total)
T05D8 000:474 JLINK_IsHalted() -- CPU_ReadMem(2 bytes @ 0x20000000)  returns TRUE (0005ms, 0303ms total)
T05D8 000:479 JLINK_ReadReg(R15 (PC))  returns 0x20000000 (0000ms, 0298ms total)
T05D8 000:479 JLINK_ClrBPEx(BPHandle = 0x00000002)  returns 0x00 (0000ms, 0298ms total)
T05D8 000:479 JLINK_ReadReg(R0)  returns 0x00000001 (0000ms, 0298ms total)
T05D8 000:479 JLINK_WriteReg(R0, 0x10000000)  returns 0x00 (0000ms, 0298ms total)
T05D8 000:479 JLINK_WriteReg(R1, 0x00001000)  returns 0x00 (0000ms, 0298ms total)
T05D8 000:479 JLINK_WriteReg(R2, 0x000000FF)  returns 0x00 (0000ms, 0298ms total)
T05D8 000:479 JLINK_WriteReg(R3, 0x00000000)  returns 0x00 (0000ms, 0298ms total)
T05D8 000:479 JLINK_WriteReg(R4, 0x00000000)  returns 0x00 (0000ms, 0298ms total)
T05D8 000:479 JLINK_WriteReg(R5, 0x00000000)  returns 0x00 (0000ms, 0298ms total)
T05D8 000:479 JLINK_WriteReg(R6, 0x00000000)  returns 0x00 (0000ms, 0298ms total)
T05D8 000:479 JLINK_WriteReg(R7, 0x00000000)  returns 0x00 (0000ms, 0298ms total)
T05D8 000:479 JLINK_WriteReg(R8, 0x00000000)  returns 0x00 (0000ms, 0298ms total)
T05D8 000:479 JLINK_WriteReg(R9, 0x2000167C)  returns 0x00 (0000ms, 0298ms total)
T05D8 000:479 JLINK_WriteReg(R10, 0x00000000)  returns 0x00 (0000ms, 0298ms total)
T05D8 000:479 JLINK_WriteReg(R11, 0x00000000)  returns 0x00 (0000ms, 0298ms total)
T05D8 000:480 JLINK_WriteReg(R12, 0x00000000)  returns 0x00 (0000ms, 0299ms total)
T05D8 000:480 JLINK_WriteReg(R13 (SP), 0x20005000)  returns 0x00 (0000ms, 0299ms total)
T05D8 000:480 JLINK_WriteReg(R14, 0x20000001)  returns 0x00 (0000ms, 0299ms total)
T05D8 000:480 JLINK_WriteReg(R15 (PC), 0x20000480)  returns 0x00 (0000ms, 0299ms total)
T05D8 000:480 JLINK_WriteReg(XPSR, 0x01000000)  returns 0x00 (0000ms, 0299ms total)
T05D8 000:480 JLINK_WriteReg(MSP, 0x20005000)  returns 0x00 (0000ms, 0299ms total)
T05D8 000:480 JLINK_WriteReg(PSP, 0x20005000)  returns 0x00 (0000ms, 0299ms total)
T05D8 000:480 JLINK_WriteReg(CFBP, 0x00000000)  returns 0x00 (0000ms, 0299ms total)
T05D8 000:480 JLINK_SetBPEx(Addr = 0x20000000, Type = 0xFFFFFFF2)  returns 0x00000003 (0000ms, 0299ms total)
T05D8 000:480 JLINK_Go() -- CPU_ReadMem(4 bytes @ 0xE0001000) -- CPU_WriteMem(4 bytes @ 0xE0001000) (0004ms, 0303ms total)
T05D8 000:484 JLINK_IsHalted()  returns FALSE (0001ms, 0304ms total)
T05D8 000:565 JLINK_IsHalted() -- CPU_ReadMem(2 bytes @ 0x20000000)  returns TRUE (0005ms, 0308ms total)
T05D8 000:570 JLINK_ReadReg(R15 (PC))  returns 0x20000000 (0000ms, 0303ms total)
T05D8 000:570 JLINK_ClrBPEx(BPHandle = 0x00000003)  returns 0x00 (0000ms, 0303ms total)
T05D8 000:570 JLINK_ReadReg(R0)  returns 0x00000000 (0000ms, 0303ms total)
T05D8 000:572 JLINK_WriteReg(R0, 0x10001000)  returns 0x00 (0000ms, 0303ms total)
T05D8 000:572 JLINK_WriteReg(R1, 0x00001000)  returns 0x00 (0000ms, 0303ms total)
T05D8 000:572 JLINK_WriteReg(R2, 0x000000FF)  returns 0x00 (0000ms, 0303ms total)
T05D8 000:572 JLINK_WriteReg(R3, 0x00000000)  returns 0x00 (0000ms, 0303ms total)
T05D8 000:572 JLINK_WriteReg(R4, 0x00000000)  returns 0x00 (0000ms, 0303ms total)
T05D8 000:572 JLINK_WriteReg(R5, 0x00000000)  returns 0x00 (0000ms, 0303ms total)
T05D8 000:572 JLINK_WriteReg(R6, 0x00000000)  returns 0x00 (0000ms, 0303ms total)
T05D8 000:572 JLINK_WriteReg(R7, 0x00000000)  returns 0x00 (0000ms, 0303ms total)
T05D8 000:572 JLINK_WriteReg(R8, 0x00000000)  returns 0x00 (0000ms, 0303ms total)
T05D8 000:572 JLINK_WriteReg(R9, 0x2000167C)  returns 0x00 (0000ms, 0303ms total)
T05D8 000:572 JLINK_WriteReg(R10, 0x00000000)  returns 0x00 (0000ms, 0303ms total)
T05D8 000:572 JLINK_WriteReg(R11, 0x00000000)  returns 0x00 (0000ms, 0303ms total)
T05D8 000:572 JLINK_WriteReg(R12, 0x00000000)  returns 0x00 (0000ms, 0303ms total)
T05D8 000:572 JLINK_WriteReg(R13 (SP), 0x20005000)  returns 0x00 (0000ms, 0303ms total)
T05D8 000:572 JLINK_WriteReg(R14, 0x20000001)  returns 0x00 (0000ms, 0303ms total)
T05D8 000:572 JLINK_WriteReg(R15 (PC), 0x20000020)  returns 0x00 (0001ms, 0304ms total)
T05D8 000:573 JLINK_WriteReg(XPSR, 0x01000000)  returns 0x00 (0000ms, 0304ms total)
T05D8 000:573 JLINK_WriteReg(MSP, 0x20005000)  returns 0x00 (0000ms, 0304ms total)
T05D8 000:573 JLINK_WriteReg(PSP, 0x20005000)  returns 0x00 (0000ms, 0304ms total)
T05D8 000:573 JLINK_WriteReg(CFBP, 0x00000000)  returns 0x00 (0000ms, 0304ms total)
T05D8 000:573 JLINK_SetBPEx(Addr = 0x20000000, Type = 0xFFFFFFF2)  returns 0x00000004 (0000ms, 0304ms total)
T05D8 000:573 JLINK_Go() -- CPU_ReadMem(4 bytes @ 0xE0001000) -- CPU_WriteMem(4 bytes @ 0xE0001000) (0005ms, 0309ms total)
T05D8 000:578 JLINK_IsHalted() -- CPU_ReadMem(2 bytes @ 0x20000000)  returns TRUE (0005ms, 0314ms total)
T05D8 000:583 JLINK_ReadReg(R15 (PC))  returns 0x20000000 (0000ms, 0309ms total)
T05D8 000:583 JLINK_ClrBPEx(BPHandle = 0x00000004)  returns 0x00 (0000ms, 0309ms total)
T05D8 000:583 JLINK_ReadReg(R0)  returns 0x00000001 (0000ms, 0309ms total)
T05D8 000:583 JLINK_WriteReg(R0, 0x10001000)  returns 0x00 (0000ms, 0309ms total)
T05D8 000:583 JLINK_WriteReg(R1, 0x00001000)  returns 0x00 (0000ms, 0309ms total)
T05D8 000:583 JLINK_WriteReg(R2, 0x000000FF)  returns 0x00 (0000ms, 0309ms total)
T05D8 000:583 JLINK_WriteReg(R3, 0x00000000)  returns 0x00 (0000ms, 0309ms total)
T05D8 000:583 JLINK_WriteReg(R4, 0x00000000)  returns 0x00 (0000ms, 0309ms total)
T05D8 000:583 JLINK_WriteReg(R5, 0x00000000)  returns 0x00 (0000ms, 0309ms total)
T05D8 000:583 JLINK_WriteReg(R6, 0x00000000)  returns 0x00 (0000ms, 0309ms total)
T05D8 000:583 JLINK_WriteReg(R7, 0x00000000)  returns 0x00 (0000ms, 0309ms total)
T05D8 000:583 JLINK_WriteReg(R8, 0x00000000)  returns 0x00 (0000ms, 0309ms total)
T05D8 000:583 JLINK_WriteReg(R9, 0x2000167C)  returns 0x00 (0000ms, 0309ms total)
T05D8 000:583 JLINK_WriteReg(R10, 0x00000000)  returns 0x00 (0000ms, 0309ms total)
T05D8 000:583 JLINK_WriteReg(R11, 0x00000000)  returns 0x00 (0000ms, 0309ms total)
T05D8 000:583 JLINK_WriteReg(R12, 0x00000000)  returns 0x00 (0001ms, 0310ms total)
T05D8 000:584 JLINK_WriteReg(R13 (SP), 0x20005000)  returns 0x00 (0000ms, 0310ms total)
T05D8 000:584 JLINK_WriteReg(R14, 0x20000001)  returns 0x00 (0000ms, 0310ms total)
T05D8 000:584 JLINK_WriteReg(R15 (PC), 0x20000480)  returns 0x00 (0000ms, 0310ms total)
T05D8 000:584 JLINK_WriteReg(XPSR, 0x01000000)  returns 0x00 (0000ms, 0310ms total)
T05D8 000:584 JLINK_WriteReg(MSP, 0x20005000)  returns 0x00 (0000ms, 0310ms total)
T05D8 000:584 JLINK_WriteReg(PSP, 0x20005000)  returns 0x00 (0000ms, 0310ms total)
T05D8 000:584 JLINK_WriteReg(CFBP, 0x00000000)  returns 0x00 (0000ms, 0310ms total)
T05D8 000:584 JLINK_SetBPEx(Addr = 0x20000000, Type = 0xFFFFFFF2)  returns 0x00000005 (0000ms, 0310ms total)
T05D8 000:584 JLINK_Go() -- CPU_ReadMem(4 bytes @ 0xE0001000) -- CPU_WriteMem(4 bytes @ 0xE0001000) (0005ms, 0315ms total)
T05D8 000:589 JLINK_IsHalted()  returns FALSE (0001ms, 0316ms total)
T05D8 000:677 JLINK_IsHalted() -- CPU_ReadMem(2 bytes @ 0x20000000)  returns TRUE (0005ms, 0320ms total)
T05D8 000:682 JLINK_ReadReg(R15 (PC))  returns 0x20000000 (0000ms, 0315ms total)
T05D8 000:682 JLINK_ClrBPEx(BPHandle = 0x00000005)  returns 0x00 (0000ms, 0315ms total)
T05D8 000:682 JLINK_ReadReg(R0)  returns 0x00000000 (0000ms, 0315ms total)
T05D8 000:682 JLINK_WriteReg(R0, 0x10002000)  returns 0x00 (0001ms, 0316ms total)
T05D8 000:683 JLINK_WriteReg(R1, 0x00001000)  returns 0x00 (0000ms, 0316ms total)
T05D8 000:683 JLINK_WriteReg(R2, 0x000000FF)  returns 0x00 (0000ms, 0316ms total)
T05D8 000:683 JLINK_WriteReg(R3, 0x00000000)  returns 0x00 (0000ms, 0316ms total)
T05D8 000:683 JLINK_WriteReg(R4, 0x00000000)  returns 0x00 (0000ms, 0316ms total)
T05D8 000:683 JLINK_WriteReg(R5, 0x00000000)  returns 0x00 (0000ms, 0316ms total)
T05D8 000:683 JLINK_WriteReg(R6, 0x00000000)  returns 0x00 (0000ms, 0316ms total)
T05D8 000:683 JLINK_WriteReg(R7, 0x00000000)  returns 0x00 (0000ms, 0316ms total)
T05D8 000:683 JLINK_WriteReg(R8, 0x00000000)  returns 0x00 (0000ms, 0316ms total)
T05D8 000:683 JLINK_WriteReg(R9, 0x2000167C)  returns 0x00 (0000ms, 0316ms total)
T05D8 000:683 JLINK_WriteReg(R10, 0x00000000)  returns 0x00 (0000ms, 0316ms total)
T05D8 000:683 JLINK_WriteReg(R11, 0x00000000)  returns 0x00 (0000ms, 0316ms total)
T05D8 000:683 JLINK_WriteReg(R12, 0x00000000)  returns 0x00 (0000ms, 0316ms total)
T05D8 000:683 JLINK_WriteReg(R13 (SP), 0x20005000)  returns 0x00 (0000ms, 0316ms total)
T05D8 000:683 JLINK_WriteReg(R14, 0x20000001)  returns 0x00 (0000ms, 0316ms total)
T05D8 000:683 JLINK_WriteReg(R15 (PC), 0x20000020)  returns 0x00 (0000ms, 0316ms total)
T05D8 000:683 JLINK_WriteReg(XPSR, 0x01000000)  returns 0x00 (0000ms, 0316ms total)
T05D8 000:683 JLINK_WriteReg(MSP, 0x20005000)  returns 0x00 (0000ms, 0316ms total)
T05D8 000:683 JLINK_WriteReg(PSP, 0x20005000)  returns 0x00 (0000ms, 0316ms total)
T05D8 000:683 JLINK_WriteReg(CFBP, 0x00000000)  returns 0x00 (0000ms, 0316ms total)
T05D8 000:683 JLINK_SetBPEx(Addr = 0x20000000, Type = 0xFFFFFFF2)  returns 0x00000006 (0000ms, 0316ms total)
T05D8 000:683 JLINK_Go() -- CPU_ReadMem(4 bytes @ 0xE0001000) -- CPU_WriteMem(4 bytes @ 0xE0001000) (0005ms, 0321ms total)
T05D8 000:688 JLINK_IsHalted() -- CPU_ReadMem(2 bytes @ 0x20000000)  returns TRUE (0005ms, 0326ms total)
T05D8 000:693 JLINK_ReadReg(R15 (PC))  returns 0x20000000 (0000ms, 0321ms total)
T05D8 000:693 JLINK_ClrBPEx(BPHandle = 0x00000006)  returns 0x00 (0000ms, 0321ms total)
T05D8 000:693 JLINK_ReadReg(R0)  returns 0x00000001 (0000ms, 0321ms total)
T05D8 000:693 JLINK_WriteReg(R0, 0x10002000)  returns 0x00 (0000ms, 0321ms total)
T05D8 000:694 JLINK_WriteReg(R1, 0x00001000)  returns 0x00 (0000ms, 0322ms total)
T05D8 000:694 JLINK_WriteReg(R2, 0x000000FF)  returns 0x00 (0000ms, 0322ms total)
T05D8 000:694 JLINK_WriteReg(R3, 0x00000000)  returns 0x00 (0000ms, 0322ms total)
T05D8 000:694 JLINK_WriteReg(R4, 0x00000000)  returns 0x00 (0000ms, 0322ms total)
T05D8 000:694 JLINK_WriteReg(R5, 0x00000000)  returns 0x00 (0000ms, 0322ms total)
T05D8 000:694 JLINK_WriteReg(R6, 0x00000000)  returns 0x00 (0000ms, 0322ms total)
T05D8 000:694 JLINK_WriteReg(R7, 0x00000000)  returns 0x00 (0000ms, 0322ms total)
T05D8 000:694 JLINK_WriteReg(R8, 0x00000000)  returns 0x00 (0000ms, 0322ms total)
T05D8 000:694 JLINK_WriteReg(R9, 0x2000167C)  returns 0x00 (0000ms, 0322ms total)
T05D8 000:694 JLINK_WriteReg(R10, 0x00000000)  returns 0x00 (0000ms, 0322ms total)
T05D8 000:694 JLINK_WriteReg(R11, 0x00000000)  returns 0x00 (0000ms, 0322ms total)
T05D8 000:694 JLINK_WriteReg(R12, 0x00000000)  returns 0x00 (0000ms, 0322ms total)
T05D8 000:694 JLINK_WriteReg(R13 (SP), 0x20005000)  returns 0x00 (0000ms, 0322ms total)
T05D8 000:694 JLINK_WriteReg(R14, 0x20000001)  returns 0x00 (0000ms, 0322ms total)
T05D8 000:694 JLINK_WriteReg(R15 (PC), 0x20000480)  returns 0x00 (0000ms, 0322ms total)
T05D8 000:694 JLINK_WriteReg(XPSR, 0x01000000)  returns 0x00 (0000ms, 0322ms total)
T05D8 000:694 JLINK_WriteReg(MSP, 0x20005000)  returns 0x00 (0000ms, 0322ms total)
T05D8 000:694 JLINK_WriteReg(PSP, 0x20005000)  returns 0x00 (0000ms, 0322ms total)
T05D8 000:694 JLINK_WriteReg(CFBP, 0x00000000)  returns 0x00 (0000ms, 0322ms total)
T05D8 000:694 JLINK_SetBPEx(Addr = 0x20000000, Type = 0xFFFFFFF2)  returns 0x00000007 (0000ms, 0322ms total)
T05D8 000:694 JLINK_Go() -- CPU_ReadMem(4 bytes @ 0xE0001000) -- CPU_WriteMem(4 bytes @ 0xE0001000) (0006ms, 0328ms total)
T05D8 000:700 JLINK_IsHalted()  returns FALSE (0001ms, 0329ms total)
T05D8 000:786 JLINK_IsHalted() -- CPU_ReadMem(2 bytes @ 0x20000000)  returns TRUE (0005ms, 0333ms total)
T05D8 000:791 JLINK_ReadReg(R15 (PC))  returns 0x20000000 (0000ms, 0328ms total)
T05D8 000:791 JLINK_ClrBPEx(BPHandle = 0x00000007)  returns 0x00 (0000ms, 0328ms total)
T05D8 000:791 JLINK_ReadReg(R0)  returns 0x00000000 (0000ms, 0328ms total)
T05D8 000:792 JLINK_WriteReg(R0, 0x10003000)  returns 0x00 (0000ms, 0328ms total)
T05D8 000:792 JLINK_WriteReg(R1, 0x00001000)  returns 0x00 (0000ms, 0328ms total)
T05D8 000:792 JLINK_WriteReg(R2, 0x000000FF)  returns 0x00 (0000ms, 0328ms total)
T05D8 000:792 JLINK_WriteReg(R3, 0x00000000)  returns 0x00 (0000ms, 0328ms total)
T05D8 000:792 JLINK_WriteReg(R4, 0x00000000)  returns 0x00 (0000ms, 0328ms total)
T05D8 000:792 JLINK_WriteReg(R5, 0x00000000)  returns 0x00 (0000ms, 0328ms total)
T05D8 000:792 JLINK_WriteReg(R6, 0x00000000)  returns 0x00 (0000ms, 0328ms total)
T05D8 000:792 JLINK_WriteReg(R7, 0x00000000)  returns 0x00 (0000ms, 0328ms total)
T05D8 000:792 JLINK_WriteReg(R8, 0x00000000)  returns 0x00 (0000ms, 0328ms total)
T05D8 000:792 JLINK_WriteReg(R9, 0x2000167C)  returns 0x00 (0000ms, 0328ms total)
T05D8 000:792 JLINK_WriteReg(R10, 0x00000000)  returns 0x00 (0000ms, 0328ms total)
T05D8 000:792 JLINK_WriteReg(R11, 0x00000000)  returns 0x00 (0000ms, 0328ms total)
T05D8 000:792 JLINK_WriteReg(R12, 0x00000000)  returns 0x00 (0000ms, 0328ms total)
T05D8 000:792 JLINK_WriteReg(R13 (SP), 0x20005000)  returns 0x00 (0000ms, 0328ms total)
T05D8 000:792 JLINK_WriteReg(R14, 0x20000001)  returns 0x00 (0000ms, 0328ms total)
T05D8 000:792 JLINK_WriteReg(R15 (PC), 0x20000020)  returns 0x00 (0000ms, 0328ms total)
T05D8 000:792 JLINK_WriteReg(XPSR, 0x01000000)  returns 0x00 (0000ms, 0328ms total)
T05D8 000:792 JLINK_WriteReg(MSP, 0x20005000)  returns 0x00 (0000ms, 0328ms total)
T05D8 000:792 JLINK_WriteReg(PSP, 0x20005000)  returns 0x00 (0000ms, 0328ms total)
T05D8 000:792 JLINK_WriteReg(CFBP, 0x00000000)  returns 0x00 (0000ms, 0328ms total)
T05D8 000:792 JLINK_SetBPEx(Addr = 0x20000000, Type = 0xFFFFFFF2)  returns 0x00000008 (0000ms, 0328ms total)
T05D8 000:792 JLINK_Go() -- CPU_ReadMem(4 bytes @ 0xE0001000) -- CPU_WriteMem(4 bytes @ 0xE0001000) (0005ms, 0333ms total)
T05D8 000:797 JLINK_IsHalted() -- CPU_ReadMem(2 bytes @ 0x20000000)  returns TRUE (0006ms, 0339ms total)
T05D8 000:803 JLINK_ReadReg(R15 (PC))  returns 0x20000000 (0000ms, 0333ms total)
T05D8 000:803 JLINK_ClrBPEx(BPHandle = 0x00000008)  returns 0x00 (0000ms, 0333ms total)
T05D8 000:803 JLINK_ReadReg(R0)  returns 0x00000001 (0000ms, 0333ms total)
T05D8 000:803 JLINK_WriteReg(R0, 0x10003000)  returns 0x00 (0000ms, 0333ms total)
T05D8 000:803 JLINK_WriteReg(R1, 0x00001000)  returns 0x00 (0000ms, 0333ms total)
T05D8 000:803 JLINK_WriteReg(R2, 0x000000FF)  returns 0x00 (0000ms, 0333ms total)
T05D8 000:803 JLINK_WriteReg(R3, 0x00000000)  returns 0x00 (0000ms, 0333ms total)
T05D8 000:803 JLINK_WriteReg(R4, 0x00000000)  returns 0x00 (0000ms, 0333ms total)
T05D8 000:803 JLINK_WriteReg(R5, 0x00000000)  returns 0x00 (0000ms, 0333ms total)
T05D8 000:803 JLINK_WriteReg(R6, 0x00000000)  returns 0x00 (0000ms, 0333ms total)
T05D8 000:803 JLINK_WriteReg(R7, 0x00000000)  returns 0x00 (0000ms, 0333ms total)
T05D8 000:803 JLINK_WriteReg(R8, 0x00000000)  returns 0x00 (0000ms, 0333ms total)
T05D8 000:803 JLINK_WriteReg(R9, 0x2000167C)  returns 0x00 (0000ms, 0333ms total)
T05D8 000:803 JLINK_WriteReg(R10, 0x00000000)  returns 0x00 (0000ms, 0333ms total)
T05D8 000:803 JLINK_WriteReg(R11, 0x00000000)  returns 0x00 (0000ms, 0333ms total)
T05D8 000:803 JLINK_WriteReg(R12, 0x00000000)  returns 0x00 (0000ms, 0333ms total)
T05D8 000:803 JLINK_WriteReg(R13 (SP), 0x20005000)  returns 0x00 (0000ms, 0333ms total)
T05D8 000:803 JLINK_WriteReg(R14, 0x20000001)  returns 0x00 (0000ms, 0333ms total)
T05D8 000:803 JLINK_WriteReg(R15 (PC), 0x20000480)  returns 0x00 (0000ms, 0333ms total)
T05D8 000:803 JLINK_WriteReg(XPSR, 0x01000000)  returns 0x00 (0000ms, 0333ms total)
T05D8 000:803 JLINK_WriteReg(MSP, 0x20005000)  returns 0x00 (0000ms, 0333ms total)
T05D8 000:803 JLINK_WriteReg(PSP, 0x20005000)  returns 0x00 (0000ms, 0333ms total)
T05D8 000:803 JLINK_WriteReg(CFBP, 0x00000000)  returns 0x00 (0000ms, 0333ms total)
T05D8 000:803 JLINK_SetBPEx(Addr = 0x20000000, Type = 0xFFFFFFF2)  returns 0x00000009 (0000ms, 0333ms total)
T05D8 000:803 JLINK_Go() -- CPU_ReadMem(4 bytes @ 0xE0001000) -- CPU_WriteMem(4 bytes @ 0xE0001000) (0006ms, 0339ms total)
T05D8 000:809 JLINK_IsHalted()  returns FALSE (0001ms, 0340ms total)
T05D8 000:898 JLINK_IsHalted() -- CPU_ReadMem(2 bytes @ 0x20000000)  returns TRUE (0005ms, 0344ms total)
T05D8 000:903 JLINK_ReadReg(R15 (PC))  returns 0x20000000 (0000ms, 0339ms total)
T05D8 000:903 JLINK_ClrBPEx(BPHandle = 0x00000009)  returns 0x00 (0000ms, 0339ms total)
T05D8 000:903 JLINK_ReadReg(R0)  returns 0x00000000 (0000ms, 0339ms total)
T05D8 000:904 JLINK_WriteReg(R0, 0x10004000)  returns 0x00 (0000ms, 0339ms total)
T05D8 000:904 JLINK_WriteReg(R1, 0x00001000)  returns 0x00 (0000ms, 0339ms total)
T05D8 000:904 JLINK_WriteReg(R2, 0x000000FF)  returns 0x00 (0000ms, 0339ms total)
T05D8 000:904 JLINK_WriteReg(R3, 0x00000000)  returns 0x00 (0000ms, 0339ms total)
T05D8 000:904 JLINK_WriteReg(R4, 0x00000000)  returns 0x00 (0000ms, 0339ms total)
T05D8 000:904 JLINK_WriteReg(R5, 0x00000000)  returns 0x00 (0000ms, 0339ms total)
T05D8 000:904 JLINK_WriteReg(R6, 0x00000000)  returns 0x00 (0000ms, 0339ms total)
T05D8 000:904 JLINK_WriteReg(R7, 0x00000000)  returns 0x00 (0000ms, 0339ms total)
T05D8 000:904 JLINK_WriteReg(R8, 0x00000000)  returns 0x00 (0000ms, 0339ms total)
T05D8 000:904 JLINK_WriteReg(R9, 0x2000167C)  returns 0x00 (0000ms, 0339ms total)
T05D8 000:904 JLINK_WriteReg(R10, 0x00000000)  returns 0x00 (0000ms, 0339ms total)
T05D8 000:904 JLINK_WriteReg(R11, 0x00000000)  returns 0x00 (0000ms, 0339ms total)
T05D8 000:904 JLINK_WriteReg(R12, 0x00000000)  returns 0x00 (0000ms, 0339ms total)
T05D8 000:904 JLINK_WriteReg(R13 (SP), 0x20005000)  returns 0x00 (0000ms, 0339ms total)
T05D8 000:904 JLINK_WriteReg(R14, 0x20000001)  returns 0x00 (0000ms, 0339ms total)
T05D8 000:904 JLINK_WriteReg(R15 (PC), 0x20000020)  returns 0x00 (0000ms, 0339ms total)
T05D8 000:904 JLINK_WriteReg(XPSR, 0x01000000)  returns 0x00 (0000ms, 0339ms total)
T05D8 000:904 JLINK_WriteReg(MSP, 0x20005000)  returns 0x00 (0000ms, 0339ms total)
T05D8 000:904 JLINK_WriteReg(PSP, 0x20005000)  returns 0x00 (0000ms, 0339ms total)
T05D8 000:904 JLINK_WriteReg(CFBP, 0x00000000)  returns 0x00 (0000ms, 0339ms total)
T05D8 000:904 JLINK_SetBPEx(Addr = 0x20000000, Type = 0xFFFFFFF2)  returns 0x0000000A (0000ms, 0339ms total)
T05D8 000:904 JLINK_Go() -- CPU_ReadMem(4 bytes @ 0xE0001000) -- CPU_WriteMem(4 bytes @ 0xE0001000) (0005ms, 0344ms total)
T05D8 000:909 JLINK_IsHalted() -- CPU_ReadMem(2 bytes @ 0x20000000)  returns TRUE (0006ms, 0350ms total)
T05D8 000:915 JLINK_ReadReg(R15 (PC))  returns 0x20000000 (0000ms, 0344ms total)
T05D8 000:915 JLINK_ClrBPEx(BPHandle = 0x0000000A)  returns 0x00 (0000ms, 0344ms total)
T05D8 000:915 JLINK_ReadReg(R0)  returns 0x00000001 (0000ms, 0344ms total)
T05D8 000:915 JLINK_WriteReg(R0, 0x10004000)  returns 0x00 (0000ms, 0344ms total)
T05D8 000:915 JLINK_WriteReg(R1, 0x00001000)  returns 0x00 (0000ms, 0344ms total)
T05D8 000:915 JLINK_WriteReg(R2, 0x000000FF)  returns 0x00 (0000ms, 0344ms total)
T05D8 000:915 JLINK_WriteReg(R3, 0x00000000)  returns 0x00 (0000ms, 0344ms total)
T05D8 000:915 JLINK_WriteReg(R4, 0x00000000)  returns 0x00 (0000ms, 0344ms total)
T05D8 000:915 JLINK_WriteReg(R5, 0x00000000)  returns 0x00 (0000ms, 0344ms total)
T05D8 000:915 JLINK_WriteReg(R6, 0x00000000)  returns 0x00 (0000ms, 0344ms total)
T05D8 000:915 JLINK_WriteReg(R7, 0x00000000)  returns 0x00 (0000ms, 0344ms total)
T05D8 000:915 JLINK_WriteReg(R8, 0x00000000)  returns 0x00 (0000ms, 0344ms total)
T05D8 000:915 JLINK_WriteReg(R9, 0x2000167C)  returns 0x00 (0000ms, 0344ms total)
T05D8 000:915 JLINK_WriteReg(R10, 0x00000000)  returns 0x00 (0000ms, 0344ms total)
T05D8 000:915 JLINK_WriteReg(R11, 0x00000000)  returns 0x00 (0000ms, 0344ms total)
T05D8 000:915 JLINK_WriteReg(R12, 0x00000000)  returns 0x00 (0000ms, 0344ms total)
T05D8 000:915 JLINK_WriteReg(R13 (SP), 0x20005000)  returns 0x00 (0000ms, 0344ms total)
T05D8 000:915 JLINK_WriteReg(R14, 0x20000001)  returns 0x00 (0000ms, 0344ms total)
T05D8 000:915 JLINK_WriteReg(R15 (PC), 0x20000480)  returns 0x00 (0000ms, 0344ms total)
T05D8 000:915 JLINK_WriteReg(XPSR, 0x01000000)  returns 0x00 (0000ms, 0344ms total)
T05D8 000:915 JLINK_WriteReg(MSP, 0x20005000)  returns 0x00 (0000ms, 0344ms total)
T05D8 000:915 JLINK_WriteReg(PSP, 0x20005000)  returns 0x00 (0000ms, 0344ms total)
T05D8 000:915 JLINK_WriteReg(CFBP, 0x00000000)  returns 0x00 (0000ms, 0344ms total)
T05D8 000:915 JLINK_SetBPEx(Addr = 0x20000000, Type = 0xFFFFFFF2)  returns 0x0000000B (0000ms, 0344ms total)
T05D8 000:915 JLINK_Go() -- CPU_ReadMem(4 bytes @ 0xE0001000) -- CPU_WriteMem(4 bytes @ 0xE0001000) (0004ms, 0348ms total)
T05D8 000:920 JLINK_IsHalted()  returns FALSE (0001ms, 0350ms total)
T05D8 001:006 JLINK_IsHalted() -- CPU_ReadMem(2 bytes @ 0x20000000)  returns TRUE (0008ms, 0357ms total)
T05D8 001:014 JLINK_ReadReg(R15 (PC))  returns 0x20000000 (0000ms, 0349ms total)
T05D8 001:014 JLINK_ClrBPEx(BPHandle = 0x0000000B)  returns 0x00 (0000ms, 0349ms total)
T05D8 001:014 JLINK_ReadReg(R0)  returns 0x00000000 (0000ms, 0349ms total)
T05D8 001:015 JLINK_WriteReg(R0, 0x10005000)  returns 0x00 (0000ms, 0349ms total)
T05D8 001:015 JLINK_WriteReg(R1, 0x00001000)  returns 0x00 (0000ms, 0349ms total)
T05D8 001:015 JLINK_WriteReg(R2, 0x000000FF)  returns 0x00 (0000ms, 0349ms total)
T05D8 001:015 JLINK_WriteReg(R3, 0x00000000)  returns 0x00 (0000ms, 0349ms total)
T05D8 001:015 JLINK_WriteReg(R4, 0x00000000)  returns 0x00 (0000ms, 0349ms total)
T05D8 001:015 JLINK_WriteReg(R5, 0x00000000)  returns 0x00 (0000ms, 0349ms total)
T05D8 001:015 JLINK_WriteReg(R6, 0x00000000)  returns 0x00 (0000ms, 0349ms total)
T05D8 001:015 JLINK_WriteReg(R7, 0x00000000)  returns 0x00 (0000ms, 0349ms total)
T05D8 001:015 JLINK_WriteReg(R8, 0x00000000)  returns 0x00 (0000ms, 0349ms total)
T05D8 001:015 JLINK_WriteReg(R9, 0x2000167C)  returns 0x00 (0000ms, 0349ms total)
T05D8 001:015 JLINK_WriteReg(R10, 0x00000000)  returns 0x00 (0000ms, 0349ms total)
T05D8 001:015 JLINK_WriteReg(R11, 0x00000000)  returns 0x00 (0000ms, 0349ms total)
T05D8 001:015 JLINK_WriteReg(R12, 0x00000000)  returns 0x00 (0000ms, 0349ms total)
T05D8 001:015 JLINK_WriteReg(R13 (SP), 0x20005000)  returns 0x00 (0000ms, 0349ms total)
T05D8 001:015 JLINK_WriteReg(R14, 0x20000001)  returns 0x00 (0000ms, 0349ms total)
T05D8 001:015 JLINK_WriteReg(R15 (PC), 0x20000020)  returns 0x00 (0000ms, 0349ms total)
T05D8 001:015 JLINK_WriteReg(XPSR, 0x01000000)  returns 0x00 (0000ms, 0349ms total)
T05D8 001:015 JLINK_WriteReg(MSP, 0x20005000)  returns 0x00 (0000ms, 0349ms total)
T05D8 001:015 JLINK_WriteReg(PSP, 0x20005000)  returns 0x00 (0000ms, 0349ms total)
T05D8 001:015 JLINK_WriteReg(CFBP, 0x00000000)  returns 0x00 (0000ms, 0349ms total)
T05D8 001:015 JLINK_SetBPEx(Addr = 0x20000000, Type = 0xFFFFFFF2)  returns 0x0000000C (0000ms, 0349ms total)
T05D8 001:015 JLINK_Go() -- CPU_ReadMem(4 bytes @ 0xE0001000) -- CPU_WriteMem(4 bytes @ 0xE0001000) (0006ms, 0355ms total)
T05D8 001:021 JLINK_IsHalted() -- CPU_ReadMem(2 bytes @ 0x20000000)  returns TRUE (0005ms, 0360ms total)
T05D8 001:026 JLINK_ReadReg(R15 (PC))  returns 0x20000000 (0000ms, 0355ms total)
T05D8 001:026 JLINK_ClrBPEx(BPHandle = 0x0000000C)  returns 0x00 (0000ms, 0355ms total)
T05D8 001:026 JLINK_ReadReg(R0)  returns 0x00000001 (0000ms, 0355ms total)
T05D8 001:026 JLINK_WriteReg(R0, 0x10005000)  returns 0x00 (0000ms, 0355ms total)
T05D8 001:026 JLINK_WriteReg(R1, 0x00001000)  returns 0x00 (0000ms, 0355ms total)
T05D8 001:026 JLINK_WriteReg(R2, 0x000000FF)  returns 0x00 (0000ms, 0355ms total)
T05D8 001:026 JLINK_WriteReg(R3, 0x00000000)  returns 0x00 (0000ms, 0355ms total)
T05D8 001:026 JLINK_WriteReg(R4, 0x00000000)  returns 0x00 (0000ms, 0355ms total)
T05D8 001:026 JLINK_WriteReg(R5, 0x00000000)  returns 0x00 (0000ms, 0355ms total)
T05D8 001:026 JLINK_WriteReg(R6, 0x00000000)  returns 0x00 (0000ms, 0355ms total)
T05D8 001:026 JLINK_WriteReg(R7, 0x00000000)  returns 0x00 (0000ms, 0355ms total)
T05D8 001:026 JLINK_WriteReg(R8, 0x00000000)  returns 0x00 (0000ms, 0355ms total)
T05D8 001:026 JLINK_WriteReg(R9, 0x2000167C)  returns 0x00 (0000ms, 0355ms total)
T05D8 001:026 JLINK_WriteReg(R10, 0x00000000)  returns 0x00 (0000ms, 0355ms total)
T05D8 001:026 JLINK_WriteReg(R11, 0x00000000)  returns 0x00 (0000ms, 0355ms total)
T05D8 001:026 JLINK_WriteReg(R12, 0x00000000)  returns 0x00 (0000ms, 0355ms total)
T05D8 001:026 JLINK_WriteReg(R13 (SP), 0x20005000)  returns 0x00 (0000ms, 0355ms total)
T05D8 001:026 JLINK_WriteReg(R14, 0x20000001)  returns 0x00 (0000ms, 0355ms total)
T05D8 001:026 JLINK_WriteReg(R15 (PC), 0x20000480)  returns 0x00 (0000ms, 0355ms total)
T05D8 001:026 JLINK_WriteReg(XPSR, 0x01000000)  returns 0x00 (0000ms, 0355ms total)
T05D8 001:026 JLINK_WriteReg(MSP, 0x20005000)  returns 0x00 (0000ms, 0355ms total)
T05D8 001:026 JLINK_WriteReg(PSP, 0x20005000)  returns 0x00 (0000ms, 0355ms total)
T05D8 001:026 JLINK_WriteReg(CFBP, 0x00000000)  returns 0x00 (0000ms, 0355ms total)
T05D8 001:026 JLINK_SetBPEx(Addr = 0x20000000, Type = 0xFFFFFFF2)  returns 0x0000000D (0000ms, 0355ms total)
T05D8 001:026 JLINK_Go() -- CPU_ReadMem(4 bytes @ 0xE0001000) -- CPU_WriteMem(4 bytes @ 0xE0001000) (0004ms, 0359ms total)
T05D8 001:030 JLINK_IsHalted()  returns FALSE (0001ms, 0360ms total)
T05D8 001:053 JLINK_IsHalted()  returns FALSE (0001ms, 0360ms total)
T05D8 001:058 JLINK_IsHalted() -- CPU_ReadMem(2 bytes @ 0x20000000)  returns TRUE (0005ms, 0364ms total)
T05D8 001:063 JLINK_ReadReg(R15 (PC))  returns 0x20000000 (0000ms, 0359ms total)
T05D8 001:063 JLINK_ClrBPEx(BPHandle = 0x0000000D)  returns 0x00 (0000ms, 0359ms total)
T05D8 001:063 JLINK_ReadReg(R0)  returns 0x00000000 (0000ms, 0359ms total)
T05D8 001:064 JLINK_WriteReg(R0, 0x10006000)  returns 0x00 (0000ms, 0359ms total)
T05D8 001:064 JLINK_WriteReg(R1, 0x00001000)  returns 0x00 (0000ms, 0359ms total)
T05D8 001:064 JLINK_WriteReg(R2, 0x000000FF)  returns 0x00 (0000ms, 0359ms total)
T05D8 001:064 JLINK_WriteReg(R3, 0x00000000)  returns 0x00 (0000ms, 0359ms total)
T05D8 001:064 JLINK_WriteReg(R4, 0x00000000)  returns 0x00 (0000ms, 0359ms total)
T05D8 001:064 JLINK_WriteReg(R5, 0x00000000)  returns 0x00 (0000ms, 0359ms total)
T05D8 001:064 JLINK_WriteReg(R6, 0x00000000)  returns 0x00 (0000ms, 0359ms total)
T05D8 001:064 JLINK_WriteReg(R7, 0x00000000)  returns 0x00 (0000ms, 0359ms total)
T05D8 001:064 JLINK_WriteReg(R8, 0x00000000)  returns 0x00 (0000ms, 0359ms total)
T05D8 001:064 JLINK_WriteReg(R9, 0x2000167C)  returns 0x00 (0000ms, 0359ms total)
T05D8 001:064 JLINK_WriteReg(R10, 0x00000000)  returns 0x00 (0000ms, 0359ms total)
T05D8 001:064 JLINK_WriteReg(R11, 0x00000000)  returns 0x00 (0000ms, 0359ms total)
T05D8 001:064 JLINK_WriteReg(R12, 0x00000000)  returns 0x00 (0000ms, 0359ms total)
T05D8 001:064 JLINK_WriteReg(R13 (SP), 0x20005000)  returns 0x00 (0000ms, 0359ms total)
T05D8 001:064 JLINK_WriteReg(R14, 0x20000001)  returns 0x00 (0000ms, 0359ms total)
T05D8 001:064 JLINK_WriteReg(R15 (PC), 0x20000020)  returns 0x00 (0000ms, 0359ms total)
T05D8 001:064 JLINK_WriteReg(XPSR, 0x01000000)  returns 0x00 (0000ms, 0359ms total)
T05D8 001:064 JLINK_WriteReg(MSP, 0x20005000)  returns 0x00 (0000ms, 0359ms total)
T05D8 001:064 JLINK_WriteReg(PSP, 0x20005000)  returns 0x00 (0000ms, 0359ms total)
T05D8 001:064 JLINK_WriteReg(CFBP, 0x00000000)  returns 0x00 (0000ms, 0359ms total)
T05D8 001:064 JLINK_SetBPEx(Addr = 0x20000000, Type = 0xFFFFFFF2)  returns 0x0000000E (0000ms, 0359ms total)
T05D8 001:064 JLINK_Go() -- CPU_ReadMem(4 bytes @ 0xE0001000) -- CPU_WriteMem(4 bytes @ 0xE0001000) (0005ms, 0364ms total)
T05D8 001:069 JLINK_IsHalted() -- CPU_ReadMem(2 bytes @ 0x20000000)  returns TRUE (0007ms, 0371ms total)
T05D8 001:076 JLINK_ReadReg(R15 (PC))  returns 0x20000000 (0000ms, 0364ms total)
T05D8 001:076 JLINK_ClrBPEx(BPHandle = 0x0000000E)  returns 0x00 (0000ms, 0364ms total)
T05D8 001:076 JLINK_ReadReg(R0)  returns 0x00000001 (0000ms, 0364ms total)
T05D8 001:076 JLINK_WriteReg(R0, 0x10006000)  returns 0x00 (0000ms, 0364ms total)
T05D8 001:076 JLINK_WriteReg(R1, 0x00001000)  returns 0x00 (0000ms, 0364ms total)
T05D8 001:076 JLINK_WriteReg(R2, 0x000000FF)  returns 0x00 (0000ms, 0364ms total)
T05D8 001:076 JLINK_WriteReg(R3, 0x00000000)  returns 0x00 (0000ms, 0364ms total)
T05D8 001:076 JLINK_WriteReg(R4, 0x00000000)  returns 0x00 (0000ms, 0364ms total)
T05D8 001:076 JLINK_WriteReg(R5, 0x00000000)  returns 0x00 (0000ms, 0364ms total)
T05D8 001:076 JLINK_WriteReg(R6, 0x00000000)  returns 0x00 (0000ms, 0364ms total)
T05D8 001:076 JLINK_WriteReg(R7, 0x00000000)  returns 0x00 (0000ms, 0364ms total)
T05D8 001:076 JLINK_WriteReg(R8, 0x00000000)  returns 0x00 (0000ms, 0364ms total)
T05D8 001:076 JLINK_WriteReg(R9, 0x2000167C)  returns 0x00 (0000ms, 0364ms total)
T05D8 001:076 JLINK_WriteReg(R10, 0x00000000)  returns 0x00 (0000ms, 0364ms total)
T05D8 001:076 JLINK_WriteReg(R11, 0x00000000)  returns 0x00 (0000ms, 0364ms total)
T05D8 001:076 JLINK_WriteReg(R12, 0x00000000)  returns 0x00 (0000ms, 0364ms total)
T05D8 001:076 JLINK_WriteReg(R13 (SP), 0x20005000)  returns 0x00 (0000ms, 0364ms total)
T05D8 001:076 JLINK_WriteReg(R14, 0x20000001)  returns 0x00 (0000ms, 0364ms total)
T05D8 001:076 JLINK_WriteReg(R15 (PC), 0x20000480)  returns 0x00 (0000ms, 0364ms total)
T05D8 001:076 JLINK_WriteReg(XPSR, 0x01000000)  returns 0x00 (0000ms, 0364ms total)
T05D8 001:076 JLINK_WriteReg(MSP, 0x20005000)  returns 0x00 (0000ms, 0364ms total)
T05D8 001:076 JLINK_WriteReg(PSP, 0x20005000)  returns 0x00 (0000ms, 0364ms total)
T05D8 001:076 JLINK_WriteReg(CFBP, 0x00000000)  returns 0x00 (0000ms, 0364ms total)
T05D8 001:076 JLINK_SetBPEx(Addr = 0x20000000, Type = 0xFFFFFFF2)  returns 0x0000000F (0001ms, 0365ms total)
T05D8 001:077 JLINK_Go() -- CPU_ReadMem(4 bytes @ 0xE0001000) -- CPU_WriteMem(4 bytes @ 0xE0001000) (0004ms, 0369ms total)
T05D8 001:081 JLINK_IsHalted()  returns FALSE (0001ms, 0370ms total)
T05D8 001:084 JLINK_IsHalted()  returns FALSE (0001ms, 0370ms total)
T05D8 001:086 JLINK_IsHalted()  returns FALSE (0001ms, 0370ms total)
T05D8 001:088 JLINK_IsHalted()  returns FALSE (0001ms, 0370ms total)
T05D8 001:092 JLINK_IsHalted()  returns FALSE (0001ms, 0370ms total)
T05D8 001:094 JLINK_IsHalted()  returns FALSE (0000ms, 0369ms total)
T05D8 001:095 JLINK_IsHalted()  returns FALSE (0000ms, 0369ms total)
T05D8 001:096 JLINK_IsHalted()  returns FALSE (0000ms, 0369ms total)
T05D8 001:097 JLINK_IsHalted()  returns FALSE (0000ms, 0369ms total)
T05D8 001:098 JLINK_IsHalted()  returns FALSE (0000ms, 0369ms total)
T05D8 001:099 JLINK_IsHalted()  returns FALSE (0000ms, 0369ms total)
T05D8 001:100 JLINK_IsHalted()  returns FALSE (0000ms, 0369ms total)
T05D8 001:101 JLINK_IsHalted()  returns FALSE (0000ms, 0369ms total)
T05D8 001:102 JLINK_IsHalted()  returns FALSE (0000ms, 0369ms total)
T05D8 001:103 JLINK_IsHalted()  returns FALSE (0000ms, 0369ms total)
T05D8 001:104 JLINK_IsHalted() -- CPU_ReadMem(2 bytes @ 0x20000000)  returns TRUE (0005ms, 0374ms total)
T05D8 001:109 JLINK_ReadReg(R15 (PC))  returns 0x20000000 (0000ms, 0369ms total)
T05D8 001:109 JLINK_ClrBPEx(BPHandle = 0x0000000F)  returns 0x00 (0000ms, 0369ms total)
T05D8 001:109 JLINK_ReadReg(R0)  returns 0x00000000 (0000ms, 0369ms total)
T05D8 001:110 JLINK_WriteReg(R0, 0x00000001)  returns 0x00 (0000ms, 0369ms total)
T05D8 001:110 JLINK_WriteReg(R1, 0x00001000)  returns 0x00 (0000ms, 0369ms total)
T05D8 001:110 JLINK_WriteReg(R2, 0x000000FF)  returns 0x00 (0000ms, 0369ms total)
T05D8 001:110 JLINK_WriteReg(R3, 0x00000000)  returns 0x00 (0000ms, 0369ms total)
T05D8 001:110 JLINK_WriteReg(R4, 0x00000000)  returns 0x00 (0000ms, 0369ms total)
T05D8 001:110 JLINK_WriteReg(R5, 0x00000000)  returns 0x00 (0000ms, 0369ms total)
T05D8 001:110 JLINK_WriteReg(R6, 0x00000000)  returns 0x00 (0000ms, 0369ms total)
T05D8 001:110 JLINK_WriteReg(R7, 0x00000000)  returns 0x00 (0000ms, 0369ms total)
T05D8 001:110 JLINK_WriteReg(R8, 0x00000000)  returns 0x00 (0000ms, 0369ms total)
T05D8 001:110 JLINK_WriteReg(R9, 0x2000167C)  returns 0x00 (0000ms, 0369ms total)
T05D8 001:110 JLINK_WriteReg(R10, 0x00000000)  returns 0x00 (0001ms, 0370ms total)
T05D8 001:111 JLINK_WriteReg(R11, 0x00000000)  returns 0x00 (0000ms, 0370ms total)
T05D8 001:111 JLINK_WriteReg(R12, 0x00000000)  returns 0x00 (0000ms, 0370ms total)
T05D8 001:111 JLINK_WriteReg(R13 (SP), 0x20005000)  returns 0x00 (0000ms, 0370ms total)
T05D8 001:111 JLINK_WriteReg(R14, 0x20000001)  returns 0x00 (0000ms, 0370ms total)
T05D8 001:111 JLINK_WriteReg(R15 (PC), 0x2000056C)  returns 0x00 (0000ms, 0370ms total)
T05D8 001:111 JLINK_WriteReg(XPSR, 0x01000000)  returns 0x00 (0000ms, 0370ms total)
T05D8 001:111 JLINK_WriteReg(MSP, 0x20005000)  returns 0x00 (0000ms, 0370ms total)
T05D8 001:111 JLINK_WriteReg(PSP, 0x20005000)  returns 0x00 (0000ms, 0370ms total)
T05D8 001:111 JLINK_WriteReg(CFBP, 0x00000000)  returns 0x00 (0000ms, 0370ms total)
T05D8 001:111 JLINK_SetBPEx(Addr = 0x20000000, Type = 0xFFFFFFF2)  returns 0x00000010 (0000ms, 0370ms total)
T05D8 001:111 JLINK_Go() -- CPU_ReadMem(4 bytes @ 0xE0001000) -- CPU_WriteMem(4 bytes @ 0xE0001000) (0005ms, 0375ms total)
T05D8 001:116 JLINK_IsHalted()  returns FALSE (0001ms, 0376ms total)
T05D8 001:121 JLINK_IsHalted()  returns FALSE (0001ms, 0376ms total)
T05D8 001:123 JLINK_IsHalted()  returns FALSE (0001ms, 0376ms total)
T05D8 001:125 JLINK_IsHalted()  returns FALSE (0001ms, 0376ms total)
T05D8 001:127 JLINK_IsHalted()  returns FALSE (0001ms, 0376ms total)
T05D8 001:129 JLINK_IsHalted()  returns FALSE (0001ms, 0376ms total)
T05D8 001:131 JLINK_IsHalted()  returns FALSE (0002ms, 0377ms total)
T05D8 001:143 JLINK_IsHalted()  returns FALSE (0001ms, 0376ms total)
T05D8 001:145 JLINK_IsHalted()  returns FALSE (0001ms, 0376ms total)
T05D8 001:147 JLINK_IsHalted()  returns FALSE (0001ms, 0376ms total)
T05D8 001:150 JLINK_IsHalted()  returns FALSE (0001ms, 0376ms total)
T05D8 001:154 JLINK_IsHalted()  returns FALSE (0001ms, 0376ms total)
T05D8 001:156 JLINK_IsHalted()  returns FALSE (0001ms, 0376ms total)
T05D8 001:158 JLINK_IsHalted()  returns FALSE (0001ms, 0376ms total)
T05D8 001:160 JLINK_IsHalted()  returns FALSE (0001ms, 0376ms total)
T05D8 001:162 JLINK_IsHalted()  returns FALSE (0001ms, 0376ms total)
T05D8 001:168 JLINK_IsHalted()  returns FALSE (0001ms, 0376ms total)
T05D8 001:170 JLINK_IsHalted()  returns FALSE (0001ms, 0376ms total)
T05D8 001:172 JLINK_IsHalted()  returns FALSE (0001ms, 0376ms total)
T05D8 001:174 JLINK_IsHalted()  returns FALSE (0001ms, 0376ms total)
T05D8 001:176 JLINK_IsHalted()  returns FALSE (0001ms, 0376ms total)
T05D8 001:178 JLINK_IsHalted()  returns FALSE (0002ms, 0377ms total)
T05D8 001:182 JLINK_IsHalted()  returns FALSE (0001ms, 0376ms total)
T05D8 001:184 JLINK_IsHalted()  returns FALSE (0001ms, 0376ms total)
T05D8 001:186 JLINK_IsHalted()  returns FALSE (0001ms, 0376ms total)
T05D8 001:188 JLINK_IsHalted()  returns FALSE (0001ms, 0376ms total)
T05D8 001:190 JLINK_IsHalted()  returns FALSE (0001ms, 0376ms total)
T05D8 001:192 JLINK_IsHalted()  returns FALSE (0001ms, 0376ms total)
T05D8 001:196 JLINK_IsHalted()  returns FALSE (0001ms, 0376ms total)
T05D8 001:198 JLINK_IsHalted()  returns FALSE (0000ms, 0375ms total)
T05D8 001:199 JLINK_IsHalted()  returns FALSE (0000ms, 0375ms total)
T05D8 001:200 JLINK_IsHalted()  returns FALSE (0000ms, 0375ms total)
T05D8 001:201 JLINK_IsHalted()  returns FALSE (0000ms, 0375ms total)
T05D8 001:202 JLINK_IsHalted()  returns FALSE (0000ms, 0375ms total)
T05D8 001:203 JLINK_IsHalted()  returns FALSE (0000ms, 0375ms total)
T05D8 001:204 JLINK_IsHalted()  returns FALSE (0000ms, 0375ms total)
T05D8 001:205 JLINK_IsHalted()  returns FALSE (0000ms, 0375ms total)
T05D8 001:206 JLINK_IsHalted()  returns FALSE (0000ms, 0375ms total)
T05D8 001:207 JLINK_IsHalted()  returns FALSE (0000ms, 0375ms total)
T05D8 001:208 JLINK_IsHalted()  returns FALSE (0000ms, 0375ms total)
T05D8 001:209 JLINK_IsHalted()  returns FALSE (0000ms, 0375ms total)
T05D8 001:210 JLINK_IsHalted()  returns FALSE (0000ms, 0375ms total)
T05D8 001:211 JLINK_IsHalted()  returns FALSE (0000ms, 0375ms total)
T05D8 001:212 JLINK_IsHalted()  returns FALSE (0000ms, 0375ms total)
T05D8 001:213 JLINK_IsHalted()  returns FALSE (0001ms, 0376ms total)
T05D8 001:217 JLINK_IsHalted()  returns FALSE (0001ms, 0376ms total)
T05D8 001:219 JLINK_IsHalted()  returns FALSE (0001ms, 0376ms total)
T05D8 001:221 JLINK_IsHalted()  returns FALSE (0001ms, 0376ms total)
T05D8 001:223 JLINK_IsHalted()  returns FALSE (0001ms, 0376ms total)
T05D8 001:225 JLINK_IsHalted()  returns FALSE (0001ms, 0376ms total)
T05D8 001:227 JLINK_IsHalted()  returns FALSE (0001ms, 0376ms total)
T05D8 001:229 JLINK_IsHalted()  returns FALSE (0001ms, 0376ms total)
T05D8 001:231 JLINK_IsHalted()  returns FALSE (0001ms, 0376ms total)
T05D8 001:233 JLINK_IsHalted()  returns FALSE (0002ms, 0377ms total)
T05D8 001:237 JLINK_IsHalted() -- CPU_ReadMem(2 bytes @ 0x20000000)  returns TRUE (0005ms, 0380ms total)
T05D8 001:242 JLINK_ReadReg(R15 (PC))  returns 0x20000000 (0000ms, 0375ms total)
T05D8 001:242 JLINK_ClrBPEx(BPHandle = 0x00000010)  returns 0x00 (0001ms, 0376ms total)
T05D8 001:243 JLINK_ReadReg(R0)  returns 0x00000000 (0000ms, 0376ms total)
T05D8 001:298 JLINK_WriteMem(0x20000000, 0x169C Bytes, ...) - Data: 00 BE 0A E0 0D 78 2D 06 68 40 08 24 40 00 00 D3 ... -- CPU_WriteMem(5788 bytes @ 0x20000000)  returns 0x169C (0043ms, 0419ms total)
T05D8 001:341 JLINK_WriteReg(R0, 0x10000000)  returns 0x00 (0000ms, 0419ms total)
T05D8 001:341 JLINK_WriteReg(R1, 0x00989680)  returns 0x00 (0000ms, 0419ms total)
T05D8 001:341 JLINK_WriteReg(R2, 0x00000002)  returns 0x00 (0000ms, 0419ms total)
T05D8 001:341 JLINK_WriteReg(R3, 0x00000000)  returns 0x00 (0000ms, 0419ms total)
T05D8 001:341 JLINK_WriteReg(R4, 0x00000000)  returns 0x00 (0000ms, 0419ms total)
T05D8 001:341 JLINK_WriteReg(R5, 0x00000000)  returns 0x00 (0000ms, 0419ms total)
T05D8 001:341 JLINK_WriteReg(R6, 0x00000000)  returns 0x00 (0000ms, 0419ms total)
T05D8 001:341 JLINK_WriteReg(R7, 0x00000000)  returns 0x00 (0000ms, 0419ms total)
T05D8 001:341 JLINK_WriteReg(R8, 0x00000000)  returns 0x00 (0000ms, 0419ms total)
T05D8 001:341 JLINK_WriteReg(R9, 0x2000167C)  returns 0x00 (0000ms, 0419ms total)
T05D8 001:341 JLINK_WriteReg(R10, 0x00000000)  returns 0x00 (0000ms, 0419ms total)
T05D8 001:341 JLINK_WriteReg(R11, 0x00000000)  returns 0x00 (0000ms, 0419ms total)
